Using: /opt/synopsys/hspice/hspice/T-2022.06-3/hspice/linux64/hspice ring_oscillator_tau.sp
 ****** PrimeSim HSPICE -- T-2022.06-3 linux64 (Aug 04 2022 7739753) ******
  Copyright (c) 1986 - 2025 by Synopsys, Inc. All Rights Reserved.
  This software and the associated documentation are proprietary
  to Synopsys, Inc. This software may only be used in accordance
  with the terms and conditions of a written license agreement with
  Synopsys, Inc. All other use, reproduction, or distribution of
  this software is strictly prohibited.
  Input File: ring_oscillator_tau.sp                                            
  Command line options: /opt/synopsys/hspice/hspice/T-2022.06-3/hspice/linux64/hspice ring_oscillator_tau.sp
  Start time: Thu Nov  6 18:57:23 2025
 lic:  
 lic: FLEXlm: SDK_12.10 
 lic: USER:   azguro               HOSTNAME: vlsicad.ecs.umass.edu 
 lic: HOSTID: 13ac8554             PID:      3727180 
 lic: Using FLEXlm license file: 
 lic: 27020@vlsicad.ecs.umass.edu 
 lic: Checkout 1 hspice 
 lic: License/Maintenance for hspice will expire on 09-sep-2027/2025.06 
 lic: 1(in_use)/50(total) FLOATING license(s) on SERVER 27020@vlsicad.ecs.umass.edu 
 lic:   
  **warning** (ring_oscillator_tau.sp:10) Global net name "gnd" in subckt pin list. The pin will be connected to the local net. Recommend to not use global net names in subckt pin lists.
1****** PrimeSim HSPICE -- T-2022.06-3 linux64 (Aug 04 2022 7739753) ******
 ******  
 ** ring oscillator tau measurement

 ****** circuit name directory
 circuit number to circuit name directory
   number circuitname                     definition         multiplier
        0 main circuit
        1 xinv1.                          min_inv            1.00 
        2 xinv2.                          min_inv            1.00 
        3 xinv3.                          min_inv            1.00 
        4 xinv4.                          min_inv            1.00 
        5 xinv5.                          min_inv            1.00 
        6 xinv6.                          min_inv            1.00 
        7 xinv7.                          min_inv            1.00 
        8 xinv8.                          min_inv            1.00 
        9 xinv9.                          min_inv            1.00 
       10 xinv10.                         min_inv            1.00 
       11 xinv11.                         min_inv            1.00 
 ******  
 ** ring oscillator tau measurement

 ****** mos   model parameters tnom=  25.000 temp=  25.000 ******
 Model file: /opt/cadence/gpdk045/gpdk045_v_6_0/models/hspice/g45n1svt.inc
 Model line:            3
 Model Name: g45n1svt  
 BSIM4 Model (Level 54)
    MOBMOD = 0
    BINUNIT = 1
    PARAMCHK = 1
    CAPMOD = 2
    DIOMOD = 1
    RDSMOD = 0
    TRNQSMOD = 0
    ACNQSMOD = 0
    RBODYMOD = 1
    RGATEMOD = 1
    PERMOD = 1
    GEOMOD = 1
    RGEOMOD = 0
    FNOIMOD = 1
    TNOIMOD = 0
    IGCMOD = 1
    IGBMOD = 1
    STIMOD = 0
    VERSION =      4 
    TOXREF = 1.14e-09 
    TOXE = 1.14e-09 
    TOXP =  1e-09 
    TOXM = 1.14e-09 
    DTOX = 1.4e-10 
    EPSROX =    3.9 
    CDSC =      0 
    CDSCB =      0 
    CDSCD =      0 
    CIT =      0 
    NFACTOR =    2.1 
    XJ = 1.98e-08 
    VSAT = 1.23e+05 
    A0 =      1 
    AGS =      0 
    A1 =      0 
    A2 =      1 
    AT = 3.3e+04 
    KETA =   0.04 
    NSUB =  6e+16 
    NDEP = 3.4e+18 
    NSD =  2e+20 
    NGATE =  3e+20 
    GAMMA1 =      0 
    GAMMA2 =      0 
    VBX =      0 
    VBM =     -3 
    XT = 1.55e-07 
    K1 =    0.4 
    KT1 =  -0.11 
    KT1L =      0 
    KT2 =  0.022 
    K2 =      0 
    K3 =      0 
    K3B =      0 
    LPE0 =      0 
    LPEB =      0 
    DVTP0 =  1e-10 
    DVTP1 =    0.1 
    W0 = 2.5e-06 
    DVT0 =      1 
    DVT1 =      2 
    DVT2 =      0 
    DVT0W =      0 
    DVT1W =      0 
    DVT2W =      0 
    DROUT =    0.5 
    DSUB =    0.1 
    VTH0 = 0.4106 
    EU =   1.67 
    UA =  6e-10 
    UA1 = 4.31e-09 
    UB = 1.2e-18 
    UB1 = 7.61e-18 
    UC =      0 
    UC1 = -5.6e-11 
    U0 =  0.045 
    UTE =   -1.5 
    VOFF =  -0.13 
    VOFFL =      0 
    MINV =   0.05 
    FPROUT =    0.2 
    PDITS =   0.08 
    PDITSD =   0.23 
    PDITSL = 2.3e+06 
    DELTA =   0.01 
    RDSW =    155 
    RDSWMIN =      0 
    RDWMIN =      0 
    RSWMIN =      0 
    RDW =     80 
    RSW =     80 
    PRWG =      0 
    PRWB =      0 
    PRT =      0 
    ETA0 =  0.006 
    ETAB =      0 
    PCLM =   0.02 
    PDIBLC1 =  0.001 
    PDIBLC2 =  0.001 
    PDIBLCB = -0.005 
    PSCBE1 = 8.14e+08 
    PSCBE2 =  1e-07 
    PVAG =  1e-20 
    WR =      1 
    DWG =      0 
    DWB =      0 
    XW =      0 
    XWREF =      0 
    XL = -2e-08 
    XLREF = -2e-08 
    B0 =      0 
    B1 =      0 
    ALPHA0 =  0.074 
    ALPHA1 =  0.005 
    AGIDL = 0.0002 
    BGIDL = 2.1e+09 
    CGIDL = 0.0002 
    PHIN =      0 
    EGIDL =    0.8 
    AIGC =   0.02 
    BIGC = 0.0027 
    CIGC =  0.002 
    AIGSD =   0.02 
    BIGSD = 0.0027 
    CIGSD =  0.002 
    AIGBACC =  0.012 
    BIGBACC = 0.0028 
    CIGBACC =  0.002 
    AIGBINV =  0.014 
    BIGBINV =  0.004 
    CIGBINV =  0.004 
    NIGC =      1 
    NIGBINV =      3 
    NIGBACC =      1 
    NTOX =      1 
    EIGBINV =    1.1 
    PIGCD =      1 
    POXEDGE =      1 
    XRCRG1 =     12 
    TNOIA =    1.5 
    TNOIB =    3.5 
    NTNOI =      1 
    XRCRG2 =      5 
    BETA0 =     30 
    IJTHDFWD =   0.01 
    IJTHSFWD =   0.01 
    IJTHDREV =  0.001 
    IJTHSREV =  0.001 
    XJBVD =      1 
    XJBVS =      1 
    BVD =     10 
    BVS =     10 
    VFB =  -0.55 
    GBMIN =  1e-10 
    RBDB =     15 
    RBPB =      5 
    RBSB =     15 
    RBPS =     15 
    RBPD =     15 
    CGSL = 2.653e-10 
    CGDL = 2.653e-10 
    CKAPPAS =   0.03 
    CKAPPAD =   0.03 
    CF = 1.289e-10 
    CLC =  1e-07 
    CLE =    0.6 
    DWC =  5e-09 
    DLC = 3.75e-09 
    DLCIG = 3.75e-09 
    DWJ =      0 
    VFBCV =     -1 
    ACDE =      1 
    MOIN =     15 
    NOFF =    0.9 
    VOFFCV =   0.02 
    DMCG =      0 
    DMCI =      0 
    DMDG =      0 
    DMCGT =      0 
    XGW =      0 
    XGL =      0 
    RSHG =    0.4 
    NGCON =      1 
    TCJ =  0.001 
    TPB =  0.005 
    TCJSW =  0.001 
    TPBSW =  0.005 
    TCJSWG =  0.001 
    TPBSWG =  0.005 
    SK0 =      0 
    SK1 =      0 
    SK2 =      0 
    SL =  2e-06 
    SW =  2e-06 
    K =      0 
    TNOM =  300.1 
    CGSO = 1.1e-10 
    CGDO = 1.1e-10 
    CGBO = 2.56e-11 
    XPART =      0 
    RSH =      5 
    JSS = 0.0001 
    JSWS =  1e-11 
    JSWGS =  1e-10 
    PBS =      1 
    MJS =    0.5 
    PBSWS =      1 
    MJSWS =   0.33 
    CJS = 0.0005 
    CJSWS =  5e-10 
    NJS =      1 
    PBSWGS =      1 
    MJSWGS =   0.33 
    CJSWGS =  3e-10 
    XTIS =      3 
    JSD = 0.0001 
    JSWD =  1e-11 
    JSWGD =  1e-10 
    PBD =      1 
    MJD =    0.5 
    PBSWD =      1 
    MJSWD =   0.33 
    CJD = 0.0005 
    CJSWD =  5e-10 
    NJD =      1 
    PBSWGD =      1 
    MJSWGD =   0.33 
    CJSWGD =  5e-10 
    XTID =      3 
    LMLT =      1 
    WMLT =      1 
    LINT = 3.75e-09 
    LL =      0 
    LLC =      0 
    LLN =      1 
    LW =      0 
    LWC =      0 
    LWN =      1 
    LWL =      0 
    LWLC =      0 
    LMIN =      0 
    LMAX =      1 
    WINT =  5e-09 
    WL =      0 
    WLC =      0 
    WLN =      1 
    WW =      0 
    WWC =      0 
    WWN =      1 
    WWL =      0 
    WWLC =      0 
    WMIN =      0 
    WMAX =      1 
    NOIA = 6.25e+41 
    NOIB = 3.125e+26 
    NOIC = 8.75e+09 
    EM = 4.1e+07 
    EF =      1 
    AF =      1 
    KF =      0 
    TRS =      0 
    TRD =      0 
 Model file: /opt/cadence/gpdk045/gpdk045_v_6_0/models/hspice/g45p1svt.inc
 Model line:            3
 Model Name: g45p1svt  
 BSIM4 Model (Level 54)
    MOBMOD = 0
    BINUNIT = 1
    PARAMCHK = 1
    CAPMOD = 2
    DIOMOD = 1
    RDSMOD = 0
    TRNQSMOD = 0
    ACNQSMOD = 0
    RBODYMOD = 1
    RGATEMOD = 1
    PERMOD = 1
    GEOMOD = 1
    RGEOMOD = 0
    FNOIMOD = 1
    TNOIMOD = 0
    IGCMOD = 1
    IGBMOD = 1
    STIMOD = 0
    VERSION =      4 
    TOXREF = 1.3e-09 
    TOXE = 1.26e-09 
    TOXP =  1e-09 
    TOXM = 1.26e-09 
    DTOX = 2.6e-10 
    EPSROX =    3.9 
    CDSC =      0 
    CDSCB =      0 
    CDSCD =      0 
    CIT =      0 
    NFACTOR =   2.22 
    XJ = 1.98e-08 
    VSAT = 6.2e+04 
    A0 =      1 
    AGS =  1e-20 
    A1 =      0 
    A2 =      1 
    AT = 3.3e+04 
    KETA = -0.047 
    NSUB =  6e+16 
    NDEP = 2.44e+18 
    NSD =  2e+20 
    NGATE =  2e+20 
    GAMMA1 =      0 
    GAMMA2 =      0 
    VBX =      0 
    VBM =     -3 
    XT = 1.55e-07 
    K1 =    0.4 
    KT1 =  -0.11 
    KT1L =      0 
    KT2 =  0.022 
    K2 =  -0.01 
    K3 =      0 
    K3B =      0 
    LPE0 =      0 
    LPEB =      0 
    DVTP0 =  1e-11 
    DVTP1 =   0.05 
    W0 = 2.5e-06 
    DVT0 =      1 
    DVT1 =      2 
    DVT2 = -0.032 
    DVT0W =      0 
    DVT1W =      0 
    DVT2W =      0 
    DROUT =   0.56 
    DSUB =    0.1 
    VTH0 = -0.3842 
    EU =      1 
    UA =  2e-09 
    UA1 = 4.31e-09 
    UB =  5e-19 
    UB1 = 7.61e-18 
    UC =      0 
    UC1 = -5.6e-11 
    U0 =   0.02 
    UTE =   -1.5 
    VOFF = -0.126 
    VOFFL =      0 
    MINV =   0.05 
    FPROUT =    0.2 
    PDITS =   0.08 
    PDITSD =   0.23 
    PDITSL = 2.3e+06 
    DELTA =   0.01 
    RDSW =    155 
    RDSWMIN =      0 
    RDWMIN =      0 
    RSWMIN =      0 
    RDW =     75 
    RSW =     75 
    PRWG =      0 
    PRWB =      0 
    PRT =      0 
    ETA0 = 0.0055 
    ETAB =      0 
    PCLM =   0.12 
    PDIBLC1 =  0.001 
    PDIBLC2 =  0.001 
    PDIBLCB = 3.4e-08 
    PSCBE1 = 8.14e+08 
    PSCBE2 = 9.58e-07 
    PVAG =  1e-20 
    WR =      1 
    DWG =      0 
    DWB =      0 
    XW =      0 
    XWREF =      0 
    XL = -2e-08 
    XLREF = -2e-08 
    B0 =      0 
    B1 =      0 
    ALPHA0 =  0.074 
    ALPHA1 =  0.005 
    AGIDL = 0.0002 
    BGIDL = 2.1e+09 
    CGIDL = 0.0002 
    PHIN =      0 
    EGIDL =    0.8 
    AIGC = 0.01069 
    BIGC = 0.001261 
    CIGC = 0.0008 
    AIGSD = 0.01069 
    BIGSD = 0.001261 
    CIGSD = 0.0008 
    AIGBACC =  0.012 
    BIGBACC = 0.0028 
    CIGBACC =  0.002 
    AIGBINV =  0.014 
    BIGBINV =  0.004 
    CIGBINV =  0.004 
    NIGC =      1 
    NIGBINV =      3 
    NIGBACC =      1 
    NTOX =      1 
    EIGBINV =    1.1 
    PIGCD =      1 
    POXEDGE =      1 
    XRCRG1 =     12 
    TNOIA =    1.5 
    TNOIB =    3.5 
    NTNOI =      1 
    XRCRG2 =      5 
    BETA0 =     30 
    IJTHDFWD =   0.01 
    IJTHSFWD =   0.01 
    IJTHDREV =  0.001 
    IJTHSREV =  0.001 
    XJBVD =      1 
    XJBVS =      1 
    BVD =     10 
    BVS =     10 
    VFB =   0.55 
    GBMIN =  1e-10 
    RBDB =     15 
    RBPB =      5 
    RBSB =     15 
    RBPS =     15 
    RBPD =     15 
    CGSL = 2.653e-10 
    CGDL = 2.653e-10 
    CKAPPAS =   0.03 
    CKAPPAD =   0.03 
    CF = 1.267e-10 
    CLC =  1e-07 
    CLE =    0.6 
    DWC =  5e-09 
    DLC = 3.75e-09 
    DLCIG = 3.75e-09 
    DWJ =      0 
    VFBCV =     -1 
    ACDE =      1 
    MOIN =     15 
    NOFF =    0.9 
    VOFFCV =   0.02 
    DMCG =      0 
    DMCI =      0 
    DMDG =      0 
    DMCGT =      0 
    XGW =      0 
    XGL =      0 
    RSHG =    0.4 
    NGCON =      1 
    TCJ =  0.001 
    TPB =  0.005 
    TCJSW =  0.001 
    TPBSW =  0.005 
    TCJSWG =  0.001 
    TPBSWG =  0.005 
    SK0 =      0 
    SK1 =      0 
    SK2 =      0 
    SL =  2e-06 
    SW =  2e-06 
    K =      0 
    TNOM =  300.1 
    CGSO = 1.1e-10 
    CGDO = 1.1e-10 
    CGBO = 2.56e-11 
    XPART =      0 
    RSH =      5 
    JSS = 0.0001 
    JSWS =  1e-11 
    JSWGS =  1e-10 
    PBS =      1 
    MJS =    0.5 
    PBSWS =      1 
    MJSWS =   0.33 
    CJS = 0.0005 
    CJSWS =  5e-10 
    NJS =      1 
    PBSWGS =      1 
    MJSWGS =   0.33 
    CJSWGS =  3e-10 
    XTIS =      3 
    JSD = 0.0001 
    JSWD =  1e-11 
    JSWGD =  1e-10 
    PBD =      1 
    MJD =    0.5 
    PBSWD =      1 
    MJSWD =   0.33 
    CJD = 0.0005 
    CJSWD =  5e-10 
    NJD =      1 
    PBSWGD =      1 
    MJSWGD =   0.33 
    CJSWGD =  5e-10 
    XTID =      3 
    LMLT =      1 
    WMLT =      1 
    LINT = 3.75e-09 
    LL =      0 
    LLC =      0 
    LLN =      1 
    LW =      0 
    LWC =      0 
    LWN =      1 
    LWL =      0 
    LWLC =      0 
    LMIN =      0 
    LMAX =      1 
    WINT =  5e-09 
    WL =      0 
    WLC =      0 
    WLN =      1 
    WW =      0 
    WWC =      0 
    WWN =      1 
    WWL =      0 
    WWLC =      0 
    WMIN =      0 
    WMAX =      1 
    NOIA = 6.188e+40 
    NOIB = 1.5e+25 
    NOIC = 8.75e+09 
    EM = 4.1e+07 
    EF =      1 
    AF =      1 
    KF =      0 
    TRS =      0 
    TRD =      0 
  **warning** (g45n1svt:xinv1.mn1 (ring_oscillator_tau.sp:12)) Warning:  Acde = 0.276941 may be too small in BSIM4 model with w=1.2e-07 l=4.5e-08.
  
      
 **info** set option symb=1 internally to help for convergence.
 *****************************************************************
 ******  option summary
 ******
 runlvl  = 3         bypass  = 2.0000    
  Opening plot unit= 15
 file=ring_oscillator_tau.pa0

 **info** dc convergence successful at Newton-Raphson method 
 ******  
 ** ring oscillator tau measurement

 ****** operating point information tnom=  25.000 temp=  25.000 ******
 ****** operating point status is voltage   simulation time is     0.     
     node    =voltage       node    =voltage       node    =voltage

 + 0:n1      =   2.2090u  0:n10     =   1.1000   0:n11     =  60.3950u
 + 0:n2      =   1.1000   0:n3      =  58.3030u  0:n4      =   1.1000 
 + 0:n5      =  58.3232u  0:n6      =   1.1000   0:n7      =  58.3232u
 + 0:n8      =   1.1000   0:n9      =  58.3232u  0:vdd     =   1.1000 

 ******
 ** ring oscillator tau measurement

 ****** transient analysis tnom=  25.000 temp=  25.000 ******
x

 time         voltage    voltage    voltage   
             n1         n6         n11        
    0.          2.2090u    1.1000    60.3950u 
  100.00000f   28.6560m    1.1000     3.0804m 
  200.00000f   57.3098m    1.1000     6.1004m 
  300.00000f   85.9636m    1.1000     9.1204m 
  400.00000f  114.6175m    1.1000    12.1404m 
  500.00000f  143.2713m    1.1000    15.1604m 
  600.00000f  171.9251m    1.1000    18.1804m 
  700.00000f  200.5789m    1.1000    21.2004m 
  800.00000f  229.2327m    1.1000    24.2204m 
  900.00000f  257.8865m    1.1000    27.2404m 
    1.00000p  286.5403m    1.1000    30.2604m 
    1.10000p  309.6096m    1.1000    31.5591m 
    1.20000p  332.6789m    1.1000    32.8578m 
    1.30000p  355.7481m    1.1000    34.1565m 
    1.40000p  378.8174m    1.1000    35.4553m 
    1.50000p  401.8866m    1.1000    36.7540m 
    1.60000p  424.9559m    1.1000    38.0527m 
    1.70000p  448.0251m    1.1000    39.3514m 
    1.80000p  471.0944m    1.1000    40.6501m 
    1.90000p  494.1637m    1.1000    41.9488m 
    2.00000p  517.2329m    1.1000    43.2475m 
    2.10000p  539.5003m    1.1000    44.2964m 
    2.20000p  561.7677m    1.1000    45.3454m 
    2.30000p  584.0351m    1.1000    46.3943m 
    2.40000p  605.0483m    1.1000    47.1227m 
    2.50000p  624.5256m    1.1000    47.4586m 
    2.60000p  644.0028m    1.1000    47.7945m 
    2.70000p  663.4801m    1.1000    48.1304m 
    2.80000p  682.9573m    1.1000    48.4663m 
    2.90000p  702.4345m    1.1000    48.8023m 
    3.00000p  721.9118m    1.1000    49.1382m 
    3.10000p  741.3890m    1.1000    49.4741m 
    3.20000p  760.8663m    1.1000    49.8100m 
    3.30000p  780.3435m    1.0999    50.1459m 
    3.40000p  799.8208m    1.0999    50.4818m 
    3.50000p  818.6772m    1.0999    50.7263m 
    3.60000p  831.0850m    1.0999    50.0204m 
    3.70000p  843.4928m    1.1000    49.3146m 
    3.80000p  855.9006m    1.1000    48.6087m 
    3.90000p  868.3084m    1.1000    47.9029m 
    4.00000p  880.7162m    1.1000    47.1971m 
    4.10000p  893.1240m    1.1000    46.4912m 
    4.20000p  905.5318m    1.1000    45.7854m 
    4.30000p  917.9396m    1.1000    45.0796m 
    4.40000p  930.3474m    1.1000    44.3737m 
    4.50000p  942.7552m    1.1000    43.6679m 
    4.60000p  955.1630m    1.1000    42.9621m 
    4.70000p  962.1401m    1.1000    41.9593m 
    4.80000p  967.4815m    1.1000    40.8671m 
    4.90000p  972.8229m    1.1000    39.7748m 
    5.00000p  978.1643m    1.1000    38.6826m 
    5.10000p  983.5056m    1.1000    37.5904m 
    5.20000p  988.8470m    1.1001    36.4982m 
    5.30000p  994.1884m    1.1001    35.4060m 
    5.40000p  999.5298m    1.1001    34.3138m 
    5.50000p    1.0049     1.1001    33.2216m 
    5.60000p    1.0102     1.1001    32.1293m 
    5.70000p    1.0156     1.1001    31.0371m 
    5.80000p    1.0209     1.1001    29.9449m 
    5.90000p    1.0262     1.1001    28.8527m 
    6.00000p    1.0316     1.1001    27.7605m 
    6.10000p    1.0369     1.1002    26.6683m 
    6.20000p    1.0390     1.1002    25.7509m 
    6.30000p    1.0408     1.1002    24.8474m 
    6.40000p    1.0426     1.1002    23.9440m 
    6.50000p    1.0444     1.1002    23.0406m 
    6.60000p    1.0462     1.1002    22.1372m 
    6.70000p    1.0480     1.1002    21.2338m 
    6.80000p    1.0497     1.1002    20.3304m 
    6.90000p    1.0515     1.1002    19.4269m 
    7.00000p    1.0533     1.1002    18.5235m 
    7.10000p    1.0551     1.1003    17.6201m 
    7.20000p    1.0569     1.1003    16.7167m 
    7.30000p    1.0587     1.1003    15.8133m 
    7.40000p    1.0605     1.1003    14.9099m 
    7.50000p    1.0617     1.1003    14.3006m 
    7.60000p    1.0626     1.1003    13.8220m 
    7.70000p    1.0635     1.1003    13.3434m 
    7.80000p    1.0644     1.1002    12.8648m 
    7.90000p    1.0653     1.1002    12.3862m 
    8.00000p    1.0662     1.1002    11.9077m 
    8.10000p    1.0671     1.1002    11.4291m 
    8.20000p    1.0681     1.1002    10.9505m 
    8.30000p    1.0690     1.1002    10.4719m 
    8.40000p    1.0699     1.1002     9.9933m 
    8.50000p    1.0708     1.1002     9.5148m 
    8.60000p    1.0717     1.1002     9.0362m 
    8.70000p    1.0726     1.1001     8.5576m 
    8.80000p    1.0735     1.1001     8.0790m 
    8.90000p    1.0744     1.1001     7.6005m 
    9.00000p    1.0753     1.1001     7.1440m 
    9.10000p    1.0760     1.1000     6.9556m 
    9.20000p    1.0766     1.1000     6.7673m 
    9.30000p    1.0773     1.0999     6.5789m 
    9.40000p    1.0780     1.0999     6.3905m 
    9.50000p    1.0787     1.0998     6.2021m 
    9.60000p    1.0793     1.0998     6.0137m 
    9.70000p    1.0800     1.0997     5.8254m 
    9.80000p    1.0807     1.0997     5.6370m 
    9.90000p    1.0814     1.0996     5.4486m 
   10.00000p    1.0820     1.0996     5.2602m 
   10.10000p    1.0827     1.0995     5.0718m 
   10.20000p    1.0834     1.0994     4.8835m 
   10.30000p    1.0840     1.0994     4.6951m 
   10.40000p    1.0847     1.0993     4.5067m 
   10.50000p    1.0854     1.0993     4.3183m 
   10.60000p    1.0861     1.0992     4.1299m 
   10.70000p    1.0867     1.0992     3.9416m 
   10.80000p    1.0872     1.0991     3.8129m 
   10.90000p    1.0876     1.0990     3.7140m 
   11.00000p    1.0880     1.0989     3.6150m 
   11.10000p    1.0884     1.0988     3.5161m 
   11.20000p    1.0889     1.0986     3.4171m 
   11.30000p    1.0893     1.0985     3.3182m 
   11.40000p    1.0897     1.0984     3.2192m 
   11.50000p    1.0901     1.0983     3.1203m 
   11.60000p    1.0905     1.0982     3.0213m 
   11.70000p    1.0909     1.0981     2.9223m 
   11.80000p    1.0913     1.0980     2.8234m 
   11.90000p    1.0917     1.0979     2.7244m 
   12.00000p    1.0921     1.0978     2.6255m 
   12.10000p    1.0925     1.0977     2.5265m 
   12.20000p    1.0929     1.0976     2.4276m 
   12.30000p    1.0933     1.0974     2.3286m 
   12.40000p    1.0935     1.0976     2.2549m 
   12.50000p    1.0936     1.0977     2.1836m 
